
T0260 000:920 SEGGER J-Link V4.62 Log File (0000ms, 0918ms total)
T0260 000:920 DLL Compiled: Jan 25 2013 15:19:47 (0000ms, 0918ms total)
T0260 000:920 Logging started @ 2016-09-11 23:31 (0000ms, 0918ms total)
T0260 000:920 JLINK_SetWarnOutHandler(...) (0000ms, 0918ms total)
T0260 000:920 JLINK_OpenEx(...)
Firmware: J-Link ARM V8 compiled May 27 2009 17:31:22
Hardware: V8.00
Feature(s): RDI,FlashDL,FlashBP,JFlash,GDBFULL  returns O.K. (0736ms, 1654ms total)
T0260 001:656 JLINK_SetErrorOutHandler(...) (0000ms, 1654ms total)
T0260 001:656 JLINK_ExecCommand("ProjectFile = "C:\Users\wangyt\Documents\Project\LSM9DS1\project\JLinkSettings.ini"", ...)  returns 0x00 (0001ms, 1655ms total)
T0260 001:657 JLINK_ExecCommand("Device = STM32F101VC", ...)
                JLINK_ExecCommand("map ram 0x20000000 - 0x20007FFF", ...)  returns 0x00 (0000ms, 0000ms total)
                JLINK_AddMirrorAreaEx(Addr = 0x00000000, Size = 0x00000000) (0000ms, 0000ms total)
              Device "STM32F101VC" selected (256 KB flash, 32 KB RAM).  returns 0x00 (0001ms, 1656ms total)
T0260 001:658 JLINK_ExecCommand("DisableConnectionTimeout", ...)  returns 0x00 (0000ms, 1656ms total)
T0260 001:658 JLINK_TIF_Select(JLINKARM_TIF_SWD)  returns 0x00 (0004ms, 1660ms total)
T0260 001:662 JLINK_SetSpeed(2000) (0000ms, 1660ms total)
T0260 001:662 JLINK_GetHardwareVersion()  returns 0x13880 (0000ms, 1660ms total)
T0260 001:662 JLINK_GetDLLVersion()  returns 46200 (0000ms, 1660ms total)
T0260 001:662 JLINK_GetFirmwareString(...) (0000ms, 1660ms total)
T0260 001:663 JLINK_GetDLLVersion()  returns 46200 (0000ms, 1660ms total)
T0260 001:663 JLINK_GetCompileDateTime() (0000ms, 1660ms total)
T0260 001:663 JLINK_GetFirmwareString(...) (0000ms, 1660ms total)
T0260 001:664 JLINK_GetHardwareVersion()  returns 0x13880 (0000ms, 1660ms total)
T0260 001:665 JLINK_GetId() >0x108 TIF>Found SWD-DP with ID 0x1BA01477 >0x0D TIF> >0x28 TIF> >0x0D TIF> >0x28 TIF> >0x0D TIF> >0x21 TIF> >0x0D TIF> >0x28 TIF> >0x0D TIF> >0x28 TIF> >0x0D TIF> >0x28 TIF> >0x0D TIF> >0x21 TIF> >0x0D TIF> >0x21 TIF> >0x0D TIF> >0x28 TIF> >0x0D TIF> >0x21 TIF> >0x0D TIF> >0x21 TIF> >0x108 TIF>Found SWD-DP with ID 0x1BA01477 >0x0D TIF> >0x21 TIF> >0x0D TIF> >0x28 TIF> >0x0D TIF> >0x28 TIF> >0x0D TIF> >0x21 TIF> >0x0D TIF> >0x21 TIF> >0x0D TIF> >0x28 TIF> >0x0D TIF> >0x21 TIF>
 >0x0D TIF> >0x21 TIF> >0x0D TIF> >0x21 TIF> >0x0D TIF> >0x21 TIF> >0x0D TIF> >0x28 TIF> >0x0D TIF> >0x21 TIF> >0x0D TIF> >0x28 TIF> >0x0D TIF> >0x28 TIF> >0x0D TIF> >0x21 TIF> >0x0D TIF> >0x21 TIF> >0x0D TIF> >0x28 TIF> >0x0D TIF> >0x21 TIF> >0x0D TIF> >0x21 TIF> >0x0D TIF> >0x28 TIF> >0x0D TIF> >0x28 TIF> >0x0D TIF> >0x28 TIF> >0x0D TIF> >0x21 TIF> >0x0D TIF> >0x21 TIF> >0x0D TIF> >0x28 TIF> >0x0D TIF> >0x28 TIF> >0x0D TIF> >0x28 TIF> >0x0D TIF> >0x21 TIF> >0x0D TIF> >0x21 TIF> >0x0D TIF> >0x21 TIF>
TPIU fitted.ETM fitted. >0x0D TIF> >0x28 TIF> >0x0D TIF> >0x21 TIF> >0x0D TIF> >0x21 TIF> >0x0D TIF> >0x28 TIF> >0x0D TIF> >0x21 TIF> >0x0D TIF> >0x21 TIF>FPUnit: 6 code (BP) slots and 2 literal slots >0x0D TIF> >0x28 TIF> >0x0D TIF> >0x21 TIF> >0x0D TIF> >0x21 TIF> >0x0D TIF> >0x28 TIF> >0x0D TIF> >0x21 TIF> >0x0D TIF> >0x21 TIF> >0x0D TIF> >0x28 TIF> >0x0D TIF> >0x21 TIF> >0x0D TIF> >0x21 TIF> >0x0D TIF> >0x28 TIF> >0x0D TIF> >0x21 TIF> >0x0D TIF> >0x21 TIF>Found Cortex-M3 r1p1, Little endian.
 >0x0D TIF> >0x28 TIF> >0x0D TIF> >0x21 TIF>  returns 0x1BA01477 (0116ms, 1776ms total)
T0260 001:781 JLINK_GetDeviceFamily()  returns 3 (0001ms, 1777ms total)
T0260 001:782 JLINK_ReadMem (0xE00FFFF0, 0x0010 Bytes, ...) -- CPU is running -- CPU_ReadMem(16 bytes @ 0xE00FFFF0) -- Data:  0D 00 00 00 10 00 00 00 05 00 00 00 B1 00 00 00  returns 0x00 (0002ms, 1779ms total)
T0260 001:784 JLINK_ReadMem (0xE00FFFD0, 0x0020 Bytes, ...) -- CPU is running -- CPU_ReadMem(32 bytes @ 0xE00FFFD0) -- Data:  00 00 00 00 00 00 00 00 00 00 00 00 00 00 00 00 ...  returns 0x00 (0001ms, 1780ms total)
T0260 001:785 JLINK_ReadMem (0xE00FF000, 0x0018 Bytes, ...) -- CPU is running -- CPU_ReadMem(24 bytes @ 0xE00FF000) -- Data:  03 F0 F0 FF 03 20 F0 FF 03 30 F0 FF 03 10 F0 FF ...  returns 0x00 (0002ms, 1782ms total)
T0260 001:787 JLINK_ReadMemU32(0xE000ED00, 0x0001 Items, ...) -- CPU is running -- CPU_ReadMem(4 bytes @ 0xE000ED00) -- Data:  31 C2 1F 41  returns 0x01 (0001ms, 1783ms total)
T0260 001:788 JLINK_SetResetType(JLINKARM_RESET_TYPE_NORMAL)  returns JLINKARM_RESET_TYPE_NORMAL (0000ms, 1783ms total)
T0260 001:788 JLINK_Reset() -- CPU_WriteMem(4 bytes @ 0xE0002000) (0019ms, 1802ms total)
T0260 001:807 JLINK_ReadReg(R15)  returns 0x080018E4 (0000ms, 1802ms total)
T0260 001:807 JLINK_ReadReg(XPSR)  returns 0x01000000 (0000ms, 1802ms total)
T0260 001:807 JLINK_Halt()  returns 0x00 (0001ms, 1803ms total)
T0260 001:808 JLINK_IsHalted()  returns TRUE (0000ms, 1803ms total)
T0260 001:808 JLINK_ReadMemU32(0xE000EDF0, 0x0001 Items, ...) -- CPU_ReadMem(4 bytes @ 0xE000EDF0) -- Data:  03 00 03 00  returns 0x01 (0001ms, 1804ms total)
T0260 001:809 JLINK_WriteU32(0xE000EDF0, 0xA05F0003) -- CPU_WriteMem(4 bytes @ 0xE000EDF0)  returns 0x00 (0001ms, 1805ms total)
T0260 001:810 JLINK_WriteU32(0xE000EDFC, 0x01000000) -- CPU_WriteMem(4 bytes @ 0xE000EDFC)  returns 0x00 (0001ms, 1806ms total)
T0260 001:811 JLINK_GetHWStatus(...)  returns 0x00 (0001ms, 1807ms total)
T0260 001:812 JLINK_GetNumBPUnits(Type = 0xFFFFFF00)  returns 0x06 (0000ms, 1807ms total)
T0260 001:812 JLINK_GetNumBPUnits(Type = 0xF0)  returns 0x2000 (0001ms, 1808ms total)
T0260 001:813 JLINK_GetNumWPUnits()  returns 0x04 (0000ms, 1808ms total)
T0260 001:813 JLINK_GetSpeed()  returns 0x7D0 (0000ms, 1808ms total)
T0260 001:813 JLINK_ReadMemU32(0xE000E004, 0x0001 Items, ...) -- CPU_ReadMem(4 bytes @ 0xE000E004) -- Data:  01 00 00 00  returns 0x01 (0001ms, 1809ms total)
T0260 001:814 JLINK_ReadMemU32(0xE000E004, 0x0001 Items, ...) -- CPU_ReadMem(4 bytes @ 0xE000E004) -- Data:  01 00 00 00  returns 0x01 (0002ms, 1811ms total)
T0260 001:816 JLINK_WriteMem(0xE0001000, 0x001C Bytes, ...) -- Data:  01 00 00 00 00 00 00 00 00 00 00 00 00 00 00 00 ... -- CPU_WriteMem(28 bytes @ 0xE0001000)  returns 0x1C (0001ms, 1812ms total)
T0260 001:817 JLINK_ReadMem (0xE0001000, 0x001C Bytes, ...) -- CPU_ReadMem(28 bytes @ 0xE0001000) -- Data:  01 00 00 40 00 00 00 00 00 00 00 00 00 00 00 00 ...  returns 0x00 (0002ms, 1814ms total)
T0260 001:819 JLINK_ReadReg(R15)  returns 0x080018E4 (0000ms, 1814ms total)
T0260 001:819 JLINK_ReadReg(XPSR)  returns 0x01000000 (0000ms, 1814ms total)
T0260 001:913 JLINK_SetResetType(JLINKARM_RESET_TYPE_NORMAL)  returns JLINKARM_RESET_TYPE_NORMAL (0000ms, 1815ms total)
T0260 001:913 JLINK_Reset() -- CPU_WriteMem(4 bytes @ 0xE0002000) (0018ms, 1833ms total)
T0260 001:931 JLINK_ReadReg(R15)  returns 0x080018E4 (0000ms, 1833ms total)
T0260 001:931 JLINK_ReadReg(XPSR)  returns 0x01000000 (0001ms, 1834ms total)
T0260 001:932 JLINK_ReadMemU32(0xE0001004, 0x0001 Items, ...) -- CPU_ReadMem(4 bytes @ 0xE0001004) -- Data:  00 00 00 00  returns 0x01 (0002ms, 1836ms total)
T0260 001:935 JLINK_ReadMem (0x080017E4, 0x003C Bytes, ...) -- CPU_ReadMem(128 bytes @ 0x080017C0) -- Updating C cache (128 bytes @ 0x080017C0) -- Read from C cache (60 bytes @ 0x080017E4) -- Data:  10 B5 36 48 00 68 40 F0 01 00 34 49 08 60 08 46 ...  returns 0x00 (0008ms, 1844ms total)
T0260 001:943 JLINK_ReadMem (0x08001820, 0x003C Bytes, ...) -- CPU_ReadMem(64 bytes @ 0x08001840) -- Updating C cache (64 bytes @ 0x08001840) -- Read from C cache (60 bytes @ 0x08001820) -- Data:  1F 00 88 60 FF F7 DA FF 4F F0 00 60 28 49 08 60 ...  returns 0x00 (0002ms, 1846ms total)
T0260 001:945 JLINK_ReadMem (0x0800185C, 0x003C Bytes, ...) -- CPU_ReadMem(64 bytes @ 0x08001880) -- Updating C cache (64 bytes @ 0x08001880) -- Read from C cache (60 bytes @ 0x0800185C) -- Data:  23 E0 18 4B 5B 68 03 F4 70 10 16 4B 5B 68 03 F4 ...  returns 0x00 (0003ms, 1849ms total)
T0260 001:948 JLINK_ReadMem (0x08001898, 0x003C Bytes, ...) -- CPU_ReadMem(64 bytes @ 0x080018C0) -- Updating C cache (64 bytes @ 0x080018C0) -- Read from C cache (60 bytes @ 0x08001898) -- Data:  0F 4C 23 60 03 E0 0D 4B 0D 4C 23 60 00 BF 00 BF ...  returns 0x00 (0002ms, 1851ms total)
T0260 001:950 JLINK_ReadMem (0x080018D4, 0x003C Bytes, ...) -- CPU_ReadMem(64 bytes @ 0x08001900) -- Updating C cache (64 bytes @ 0x08001900) -- Read from C cache (60 bytes @ 0x080018D4) -- Data:  00 12 7A 00 18 00 00 20 00 09 3D 00 1C 00 00 20 ...  returns 0x00 (0002ms, 1853ms total)
T0260 003:231 JLINK_ReadMem (0x08000970, 0x003C Bytes, ...) -- CPU_ReadMem(128 bytes @ 0x08000940) -- Updating C cache (128 bytes @ 0x08000940) -- Read from C cache (60 bytes @ 0x08000970) -- Data:  70 BD 10 B5 01 46 00 20 00 23 00 22 8B 8A 0A 8B ...  returns 0x00 (0003ms, 1856ms total)
T0260 003:583 JLINK_ReadMemU32(0xE0001004, 0x0001 Items, ...) -- CPU_ReadMem(4 bytes @ 0xE0001004) -- Data:  00 00 00 00  returns 0x01 (0001ms, 1857ms total)
T0260 006:314 JLINK_ReadMem (0x0800166E, 0x0002 Bytes, ...) -- CPU_ReadMem(64 bytes @ 0x08001640) -- Updating C cache (64 bytes @ 0x08001640) -- Read from C cache (2 bytes @ 0x0800166E) -- Data:  00 22  returns 0x00 (0004ms, 1861ms total)
T0260 006:318 JLINK_ReadMem (0x08001670, 0x003C Bytes, ...) -- CPU_ReadMem(64 bytes @ 0x08001680) -- Updating C cache (64 bytes @ 0x08001680) -- Read from C cache (60 bytes @ 0x08001670) -- Data:  39 46 18 48 FF F7 DD F8 00 BF 1B 49 15 48 FF F7 ...  returns 0x00 (0003ms, 1864ms total)
T0260 010:315 JLINK_ReadMem (0x08001994, 0x003C Bytes, ...) -- CPU_ReadMem(128 bytes @ 0x08001980) -- Updating C cache (128 bytes @ 0x08001980) -- Read from C cache (60 bytes @ 0x08001994) -- Data:  01 23 10 22 D4 21 68 46 FF F7 4E FE 0A 20 FF F7 ...  returns 0x00 (0004ms, 1868ms total)
T0260 012:933 JLINK_ReadMem (0x08001936, 0x0002 Bytes, ...) -- Read from C cache (2 bytes @ 0x08001936) -- Data:  01 23  returns 0x00 (0002ms, 1870ms total)
T0260 012:935 JLINK_ReadMem (0x08001938, 0x003C Bytes, ...) -- CPU_ReadMem(64 bytes @ 0x08001940) -- Updating C cache (64 bytes @ 0x08001940) -- Read from C cache (60 bytes @ 0x08001938) -- Data:  0F 22 D7 21 68 46 FF F7 18 FE 9D F8 00 00 08 BD ...  returns 0x00 (0002ms, 1872ms total)
T0260 046:662 JLINK_SetResetType(JLINKARM_RESET_TYPE_NORMAL)  returns JLINKARM_RESET_TYPE_NORMAL (0000ms, 1872ms total)
T0260 046:662 JLINK_Reset() -- CPU_WriteMem(4 bytes @ 0xE0002000) (0021ms, 1893ms total)
T0260 046:683 JLINK_ReadReg(R15)  returns 0x080018E4 (0000ms, 1893ms total)
T0260 046:683 JLINK_ReadReg(XPSR)  returns 0x01000000 (0000ms, 1893ms total)
T0260 046:683 JLINK_ReadMemU32(0xE0001004, 0x0001 Items, ...) -- CPU_ReadMem(4 bytes @ 0xE0001004) -- Data:  00 00 00 00  returns 0x01 (0002ms, 1895ms total)
T0260 046:693 JLINK_ReadMem (0x080018D4, 0x003C Bytes, ...) -- CPU_ReadMem(128 bytes @ 0x080018C0) -- Updating C cache (128 bytes @ 0x080018C0) -- Read from C cache (60 bytes @ 0x080018D4) -- Data:  00 12 7A 00 18 00 00 20 00 09 3D 00 1C 00 00 20 ...  returns 0x00 (0004ms, 1899ms total)
T1520 047:376 JLINK_SetBPEx(Addr = 0x08001994, Type = 0xFFFFFFF2)  returns 0x00000001 (0001ms, 1900ms total)
T1520 047:377 JLINK_Go() -- CPU_WriteMem(4 bytes @ 0xE0002008) -- CPU_WriteMem(4 bytes @ 0xE000200C) -- CPU_WriteMem(4 bytes @ 0xE0002010) -- CPU_WriteMem(4 bytes @ 0xE0002014) -- CPU_WriteMem(4 bytes @ 0xE0002018) -- CPU_WriteMem(4 bytes @ 0xE000201C) (0010ms, 1910ms total)
T1520 047:487 JLINK_IsHalted()  returns TRUE (0006ms, 1916ms total)
T1520 047:494 JLINK_Halt()  returns 0x00 (0000ms, 1910ms total)
T1520 047:494 JLINK_IsHalted()  returns TRUE (0000ms, 1910ms total)
T1520 047:494 JLINK_IsHalted()  returns TRUE (0000ms, 1910ms total)
T1520 047:494 JLINK_IsHalted()  returns TRUE (0000ms, 1910ms total)
T1520 047:494 JLINK_ReadReg(R15)  returns 0x08001994 (0000ms, 1910ms total)
T1520 047:494 JLINK_ReadReg(XPSR)  returns 0x21000000 (0000ms, 1910ms total)
T1520 047:495 JLINK_ClrBPEx(BPHandle = 0x00000001)  returns 0x00 (0000ms, 1911ms total)
T1520 047:495 JLINK_ReadMemU32(0xE000ED30, 0x0001 Items, ...) -- CPU_ReadMem(4 bytes @ 0xE000ED30) -- Data:  0B 00 00 00  returns 0x01 (0001ms, 1912ms total)
T1520 047:497 JLINK_ReadMemU32(0xE0001028, 0x0001 Items, ...) -- CPU_ReadMem(4 bytes @ 0xE0001028) -- Data:  00 00 00 00  returns 0x01 (0001ms, 1913ms total)
T1520 047:498 JLINK_ReadMemU32(0xE0001038, 0x0001 Items, ...) -- CPU_ReadMem(4 bytes @ 0xE0001038) -- Data:  00 00 00 00  returns 0x01 (0002ms, 1915ms total)
T1520 047:500 JLINK_ReadMemU32(0xE0001048, 0x0001 Items, ...) -- CPU_ReadMem(4 bytes @ 0xE0001048) -- Data:  00 00 00 00  returns 0x01 (0001ms, 1916ms total)
T1520 047:501 JLINK_ReadMemU32(0xE0001058, 0x0001 Items, ...) -- CPU_ReadMem(4 bytes @ 0xE0001058) -- Data:  00 00 00 00  returns 0x01 (0002ms, 1918ms total)
T1520 047:503 JLINK_ReadReg(R0)  returns 0x000000C1 (0001ms, 1919ms total)
T1520 047:504 JLINK_ReadReg(R1)  returns 0x00000180 (0000ms, 1919ms total)
T1520 047:504 JLINK_ReadReg(R2)  returns 0x40011000 (0000ms, 1919ms total)
T1520 047:504 JLINK_ReadReg(R3)  returns 0x10030180 (0000ms, 1919ms total)
T1520 047:504 JLINK_ReadReg(R4)  returns 0x00000000 (0000ms, 1919ms total)
T1520 047:504 JLINK_ReadReg(R5)  returns 0x2000002C (0000ms, 1919ms total)
T1520 047:504 JLINK_ReadReg(R6)  returns 0x00000000 (0000ms, 1919ms total)
T1520 047:504 JLINK_ReadReg(R7)  returns 0x00000000 (0001ms, 1920ms total)
T1520 047:505 JLINK_ReadReg(R8)  returns 0x00000000 (0000ms, 1920ms total)
T1520 047:505 JLINK_ReadReg(R9)  returns 0x20000160 (0000ms, 1920ms total)
T1520 047:505 JLINK_ReadReg(R10)  returns 0x08001DB8 (0000ms, 1920ms total)
T1520 047:505 JLINK_ReadReg(R11)  returns 0x00000000 (0000ms, 1920ms total)
T1520 047:505 JLINK_ReadReg(R12)  returns 0x00000180 (0000ms, 1920ms total)
T1520 047:505 JLINK_ReadReg(R13)  returns 0x20000250 (0001ms, 1921ms total)
T1520 047:506 JLINK_ReadReg(R14)  returns 0x08001A33 (0000ms, 1921ms total)
T1520 047:506 JLINK_ReadReg(R15)  returns 0x08001994 (0000ms, 1921ms total)
T1520 047:506 JLINK_ReadReg(XPSR)  returns 0x21000000 (0000ms, 1921ms total)
T1520 047:506 JLINK_ReadReg(MSP)  returns 0x20000250 (0000ms, 1921ms total)
T1520 047:506 JLINK_ReadReg(PSP)  returns 0x20000800 (0000ms, 1921ms total)
T1520 047:506 JLINK_ReadReg(CFBP)  returns 0x00000000 (0000ms, 1921ms total)
T0260 047:507 JLINK_ReadMem (0x20000254, 0x0004 Bytes, ...) -- CPU_ReadMem(64 bytes @ 0x20000240) -- Updating C cache (64 bytes @ 0x20000240) -- Read from C cache (4 bytes @ 0x20000254) -- Data:  33 1A 00 08  returns 0x00 (0002ms, 1923ms total)
T0260 047:509 JLINK_ReadMem (0x2000025C, 0x0004 Bytes, ...) -- Read from C cache (4 bytes @ 0x2000025C) -- Data:  55 15 00 08  returns 0x00 (0001ms, 1924ms total)
T0260 047:510 JLINK_ReadMem (0x20000258, 0x0004 Bytes, ...) -- Read from C cache (4 bytes @ 0x20000258) -- Data:  00 00 00 00  returns 0x00 (0000ms, 1924ms total)
T0260 047:510 JLINK_ReadMem (0x20000264, 0x0004 Bytes, ...) -- Read from C cache (4 bytes @ 0x20000264) -- Data:  CB 11 00 08  returns 0x00 (0000ms, 1924ms total)
T0260 047:511 JLINK_ReadMem (0x20000260, 0x0004 Bytes, ...) -- Read from C cache (4 bytes @ 0x20000260) -- Data:  00 00 00 00  returns 0x00 (0000ms, 1924ms total)
T0260 047:511 JLINK_ReadMem (0x20000250, 0x0001 Bytes, ...) -- Read from C cache (1 bytes @ 0x20000250) -- Data:  C1  returns 0x00 (0001ms, 1925ms total)
T0260 047:513 JLINK_ReadMemU32(0xE0001004, 0x0001 Items, ...) -- CPU_ReadMem(4 bytes @ 0xE0001004) -- Data:  00 00 00 00  returns 0x01 (0002ms, 1927ms total)
T0260 047:538 JLINK_ReadMem (0x08001990, 0x003C Bytes, ...) -- CPU_ReadMem(128 bytes @ 0x08001980) -- Updating C cache (128 bytes @ 0x08001980) -- Read from C cache (60 bytes @ 0x08001990) -- Data:  C1 20 00 90 01 23 10 22 D4 21 68 46 FF F7 4E FE ...  returns 0x00 (0003ms, 1930ms total)
T0260 047:541 JLINK_ReadMem (0x0800198E, 0x0002 Bytes, ...) -- Read from C cache (2 bytes @ 0x0800198E) -- Data:  08 B5  returns 0x00 (0000ms, 1930ms total)
T0260 049:410 JLINK_ReadMem (0x40005400, 0x0002 Bytes, ...) -- CPU_ReadMem(2 bytes @ 0x40005400) -- Data:  01 04  returns 0x00 (0003ms, 1933ms total)
T0260 049:413 JLINK_ReadMem (0x40005402, 0x0002 Bytes, ...) -- CPU_ReadMem(2 bytes @ 0x40005402) -- Data:  00 00  returns 0x00 (0002ms, 1935ms total)
T0260 049:415 JLINK_ReadMem (0x40005404, 0x0002 Bytes, ...) -- CPU_ReadMem(2 bytes @ 0x40005404) -- Data:  24 00  returns 0x00 (0002ms, 1937ms total)
T0260 049:417 JLINK_ReadMem (0x40005406, 0x0002 Bytes, ...) -- CPU_ReadMem(2 bytes @ 0x40005406) -- Data:  00 00  returns 0x00 (0002ms, 1939ms total)
T0260 049:419 JLINK_ReadMem (0x40005408, 0x0002 Bytes, ...) -- CPU_ReadMem(2 bytes @ 0x40005408) -- Data:  0A 40  returns 0x00 (0001ms, 1940ms total)
T0260 049:421 JLINK_ReadMem (0x4000540A, 0x0002 Bytes, ...) -- CPU_ReadMem(2 bytes @ 0x4000540A) -- Data:  00 00  returns 0x00 (0001ms, 1941ms total)
T0260 049:422 JLINK_ReadMem (0x4000540C, 0x0002 Bytes, ...) -- CPU_ReadMem(2 bytes @ 0x4000540C) -- Data:  00 00  returns 0x00 (0002ms, 1943ms total)
T0260 049:424 JLINK_ReadMem (0x4000540E, 0x0002 Bytes, ...) -- CPU_ReadMem(2 bytes @ 0x4000540E) -- Data:  00 00  returns 0x00 (0002ms, 1945ms total)
T0260 049:426 JLINK_ReadMem (0x40005410, 0x0002 Bytes, ...) -- CPU_ReadMem(2 bytes @ 0x40005410) -- Data:  00 00  returns 0x00 (0002ms, 1947ms total)
T0260 049:428 JLINK_ReadMem (0x40005412, 0x0002 Bytes, ...) -- CPU_ReadMem(2 bytes @ 0x40005412) -- Data:  00 00  returns 0x00 (0001ms, 1948ms total)
T0260 049:429 JLINK_ReadMem (0x40005414, 0x0002 Bytes, ...) -- CPU_ReadMem(2 bytes @ 0x40005414) -- Data:  00 00  returns 0x00 (0002ms, 1950ms total)
T0260 049:431 JLINK_ReadMem (0x40005416, 0x0002 Bytes, ...) -- CPU_ReadMem(2 bytes @ 0x40005416) -- Data:  00 00  returns 0x00 (0002ms, 1952ms total)
T0260 049:433 JLINK_ReadMem (0x40005418, 0x0002 Bytes, ...) -- CPU_ReadMem(2 bytes @ 0x40005418) -- Data:  00 00  returns 0x00 (0002ms, 1954ms total)
T0260 049:435 JLINK_ReadMem (0x4000541A, 0x0002 Bytes, ...) -- CPU_ReadMem(2 bytes @ 0x4000541A) -- Data:  00 00  returns 0x00 (0001ms, 1955ms total)
T0260 049:436 JLINK_ReadMem (0x4000541C, 0x0002 Bytes, ...) -- CPU_ReadMem(2 bytes @ 0x4000541C) -- Data:  C2 01  returns 0x00 (0002ms, 1957ms total)
T0260 049:438 JLINK_ReadMem (0x4000541E, 0x0002 Bytes, ...) -- CPU_ReadMem(2 bytes @ 0x4000541E) -- Data:  00 00  returns 0x00 (0002ms, 1959ms total)
T0260 049:440 JLINK_ReadMem (0x40005420, 0x0002 Bytes, ...) -- CPU_ReadMem(2 bytes @ 0x40005420) -- Data:  25 00  returns 0x00 (0002ms, 1961ms total)
T0260 049:442 JLINK_ReadMem (0x40005422, 0x0002 Bytes, ...) -- CPU_ReadMem(2 bytes @ 0x40005422) -- Data:  00 00  returns 0x00 (0001ms, 1962ms total)
T1520 052:593 JLINK_Step() -- Read from C cache (2 bytes @ 0x08001994) -- Simulated  returns 0x00 (0010ms, 1972ms total)
T1520 052:603 JLINK_ReadReg(R15)  returns 0x08001996 (0000ms, 1972ms total)
T1520 052:603 JLINK_ReadReg(XPSR)  returns 0x21000000 (0000ms, 1972ms total)
T1520 052:603 JLINK_Step() -- Read from C cache (2 bytes @ 0x08001996) -- Simulated  returns 0x00 (0001ms, 1973ms total)
T1520 052:604 JLINK_ReadReg(R15)  returns 0x08001998 (0000ms, 1973ms total)
T1520 052:604 JLINK_ReadReg(XPSR)  returns 0x21000000 (0000ms, 1973ms total)
T1520 052:604 JLINK_Step() -- Read from C cache (2 bytes @ 0x08001998) -- Simulated  returns 0x00 (0000ms, 1973ms total)
T1520 052:604 JLINK_ReadReg(R15)  returns 0x0800199A (0000ms, 1973ms total)
T1520 052:604 JLINK_ReadReg(XPSR)  returns 0x21000000 (0000ms, 1973ms total)
T1520 052:605 JLINK_Step() -- Read from C cache (2 bytes @ 0x0800199A) -- Simulated  returns 0x00 (0000ms, 1974ms total)
T1520 052:605 JLINK_ReadReg(R15)  returns 0x0800199C (0000ms, 1974ms total)
T1520 052:605 JLINK_ReadReg(XPSR)  returns 0x21000000 (0000ms, 1974ms total)
T1520 052:605 JLINK_Step() -- Read from C cache (2 bytes @ 0x0800199C) -- Read from C cache (2 bytes @ 0x0800199E) -- Simulated  returns 0x00 (0000ms, 1974ms total)
T1520 052:605 JLINK_ReadReg(R15)  returns 0x0800163C (0001ms, 1975ms total)
T1520 052:606 JLINK_ReadReg(XPSR)  returns 0x21000000 (0000ms, 1975ms total)
T1520 052:606 JLINK_ReadReg(R0)  returns 0x20000250 (0000ms, 1975ms total)
T1520 052:606 JLINK_ReadReg(R1)  returns 0x000000D4 (0000ms, 1975ms total)
T1520 052:606 JLINK_ReadReg(R2)  returns 0x00000010 (0000ms, 1975ms total)
T1520 052:606 JLINK_ReadReg(R3)  returns 0x00000001 (0001ms, 1976ms total)
T1520 052:607 JLINK_ReadReg(R4)  returns 0x00000000 (0000ms, 1976ms total)
T1520 052:607 JLINK_ReadReg(R5)  returns 0x2000002C (0000ms, 1976ms total)
T1520 052:607 JLINK_ReadReg(R6)  returns 0x00000000 (0000ms, 1976ms total)
T1520 052:607 JLINK_ReadReg(R7)  returns 0x00000000 (0000ms, 1976ms total)
T1520 052:607 JLINK_ReadReg(R8)  returns 0x00000000 (0000ms, 1976ms total)
T1520 052:607 JLINK_ReadReg(R9)  returns 0x20000160 (0001ms, 1977ms total)
T1520 052:608 JLINK_ReadReg(R10)  returns 0x08001DB8 (0000ms, 1977ms total)
T1520 052:608 JLINK_ReadReg(R11)  returns 0x00000000 (0000ms, 1977ms total)
T1520 052:608 JLINK_ReadReg(R12)  returns 0x00000180 (0000ms, 1977ms total)
T1520 052:608 JLINK_ReadReg(R13)  returns 0x20000250 (0000ms, 1977ms total)
T1520 052:608 JLINK_ReadReg(R14)  returns 0x080019A1 (0000ms, 1977ms total)
T1520 052:608 JLINK_ReadReg(R15)  returns 0x0800163C (0000ms, 1977ms total)
T1520 052:608 JLINK_ReadReg(XPSR)  returns 0x21000000 (0001ms, 1978ms total)
T1520 052:609 JLINK_ReadReg(MSP)  returns 0x20000250 (0000ms, 1978ms total)
T1520 052:609 JLINK_ReadReg(PSP)  returns 0x20000800 (0000ms, 1978ms total)
T1520 052:609 JLINK_ReadReg(CFBP)  returns 0x00000000 (0000ms, 1978ms total)
T0260 052:614 JLINK_ReadMem (0x20000254, 0x0004 Bytes, ...) -- Read from C cache (4 bytes @ 0x20000254) -- Data:  33 1A 00 08  returns 0x00 (0000ms, 1978ms total)
T0260 052:614 JLINK_ReadMem (0x2000025C, 0x0004 Bytes, ...) -- Read from C cache (4 bytes @ 0x2000025C) -- Data:  55 15 00 08  returns 0x00 (0000ms, 1978ms total)
T0260 052:614 JLINK_ReadMem (0x20000258, 0x0004 Bytes, ...) -- Read from C cache (4 bytes @ 0x20000258) -- Data:  00 00 00 00  returns 0x00 (0000ms, 1978ms total)
T0260 052:614 JLINK_ReadMem (0x20000264, 0x0004 Bytes, ...) -- Read from C cache (4 bytes @ 0x20000264) -- Data:  CB 11 00 08  returns 0x00 (0000ms, 1978ms total)
T0260 052:614 JLINK_ReadMem (0x20000260, 0x0004 Bytes, ...) -- Read from C cache (4 bytes @ 0x20000260) -- Data:  00 00 00 00  returns 0x00 (0000ms, 1978ms total)
T0260 052:615 JLINK_ReadMem (0x00000000, 0x0004 Bytes, ...)
                JLINK_ReadMemHW(0x00000000, 0x0004 Bytes, ...) -- CPU_ReadMem(4 bytes @ 0x00000000) -- Data:  90 02 00 20  returns 0x00 (0001ms, 0001ms total)
                JLINK_ReadMemHW(0x08000000, 0x0004 Bytes, ...) -- CPU_ReadMem(4 bytes @ 0x08000000) -- Data:  90 02 00 20  returns 0x00 (0001ms, 0002ms total)
                JLINK_WriteMemHW(0x00000000, 0x0004 Bytes, ...) -- Data:  01 00 01 00 -- CPU_WriteMem(4 bytes @ 0x00000000)  returns 0x04 (0001ms, 0003ms total)
                JLINK_ReadMemHW(0x00000000, 0x0004 Bytes, ...) -- CPU_ReadMem(4 bytes @ 0x00000000) -- Data:  90 02 00 20  returns 0x00 (0002ms, 0005ms total)
               -- MA0 is in flash -- Unmirror addr 0x00000000 -- CPU_ReadMem(64 bytes @ 0x08000000) -- Updating C cache (64 bytes @ 0x08000000) -- Read from C cache (4 bytes @ 0x08000000) -- Data:  90 02 00 20  returns 0x00 (0007ms, 1985ms total)
T0260 052:622 JLINK_ReadMem (0x20000250, 0x0001 Bytes, ...) -- Read from C cache (1 bytes @ 0x20000250) -- Data:  C1  returns 0x00 (0000ms, 1985ms total)
T0260 052:622 JLINK_ReadMemU32(0xE0001004, 0x0001 Items, ...) -- Data:  00 00 00 00  returns 0x01 (0000ms, 1985ms total)
T0260 052:623 JLINK_ReadMem (0x40005400, 0x0002 Bytes, ...) -- CPU_ReadMem(2 bytes @ 0x40005400) -- Data:  01 04  returns 0x00 (0001ms, 1986ms total)
T0260 052:624 JLINK_ReadMem (0x40005402, 0x0002 Bytes, ...) -- CPU_ReadMem(2 bytes @ 0x40005402) -- Data:  00 00  returns 0x00 (0001ms, 1987ms total)
T0260 052:625 JLINK_ReadMem (0x40005404, 0x0002 Bytes, ...) -- CPU_ReadMem(2 bytes @ 0x40005404) -- Data:  24 00  returns 0x00 (0002ms, 1989ms total)
T0260 052:627 JLINK_ReadMem (0x40005406, 0x0002 Bytes, ...) -- CPU_ReadMem(2 bytes @ 0x40005406) -- Data:  00 00  returns 0x00 (0001ms, 1990ms total)
T0260 052:628 JLINK_ReadMem (0x40005408, 0x0002 Bytes, ...) -- CPU_ReadMem(2 bytes @ 0x40005408) -- Data:  0A 40  returns 0x00 (0001ms, 1991ms total)
T0260 052:629 JLINK_ReadMem (0x4000540A, 0x0002 Bytes, ...) -- CPU_ReadMem(2 bytes @ 0x4000540A) -- Data:  00 00  returns 0x00 (0002ms, 1993ms total)
T0260 052:631 JLINK_ReadMem (0x4000540C, 0x0002 Bytes, ...) -- CPU_ReadMem(2 bytes @ 0x4000540C) -- Data:  00 00  returns 0x00 (0001ms, 1994ms total)
T0260 052:632 JLINK_ReadMem (0x4000540E, 0x0002 Bytes, ...) -- CPU_ReadMem(2 bytes @ 0x4000540E) -- Data:  00 00  returns 0x00 (0001ms, 1995ms total)
T0260 052:633 JLINK_ReadMem (0x40005410, 0x0002 Bytes, ...) -- CPU_ReadMem(2 bytes @ 0x40005410) -- Data:  00 00  returns 0x00 (0002ms, 1997ms total)
T0260 052:635 JLINK_ReadMem (0x40005412, 0x0002 Bytes, ...) -- CPU_ReadMem(2 bytes @ 0x40005412) -- Data:  00 00  returns 0x00 (0001ms, 1998ms total)
T0260 052:636 JLINK_ReadMem (0x40005414, 0x0002 Bytes, ...) -- CPU_ReadMem(2 bytes @ 0x40005414) -- Data:  00 00  returns 0x00 (0001ms, 1999ms total)
T0260 052:637 JLINK_ReadMem (0x40005416, 0x0002 Bytes, ...) -- CPU_ReadMem(2 bytes @ 0x40005416) -- Data:  00 00  returns 0x00 (0002ms, 2001ms total)
T0260 052:639 JLINK_ReadMem (0x40005418, 0x0002 Bytes, ...) -- CPU_ReadMem(2 bytes @ 0x40005418) -- Data:  00 00  returns 0x00 (0001ms, 2002ms total)
T0260 052:640 JLINK_ReadMem (0x4000541A, 0x0002 Bytes, ...) -- CPU_ReadMem(2 bytes @ 0x4000541A) -- Data:  00 00  returns 0x00 (0001ms, 2003ms total)
T0260 052:641 JLINK_ReadMem (0x4000541C, 0x0002 Bytes, ...) -- CPU_ReadMem(2 bytes @ 0x4000541C) -- Data:  C2 01  returns 0x00 (0002ms, 2005ms total)
T0260 052:643 JLINK_ReadMem (0x4000541E, 0x0002 Bytes, ...) -- CPU_ReadMem(2 bytes @ 0x4000541E) -- Data:  00 00  returns 0x00 (0001ms, 2006ms total)
T0260 052:644 JLINK_ReadMem (0x40005420, 0x0002 Bytes, ...) -- CPU_ReadMem(2 bytes @ 0x40005420) -- Data:  25 00  returns 0x00 (0001ms, 2007ms total)
T0260 052:645 JLINK_ReadMem (0x40005422, 0x0002 Bytes, ...) -- CPU_ReadMem(2 bytes @ 0x40005422) -- Data:  00 00  returns 0x00 (0002ms, 2009ms total)
T0260 052:656 JLINK_ReadMem (0x08001638, 0x003C Bytes, ...) -- CPU_ReadMem(128 bytes @ 0x08001600) -- Updating C cache (128 bytes @ 0x08001600) -- Read from C cache (60 bytes @ 0x08001638) -- Data:  BD E8 F0 81 2D E9 F0 41 04 46 0F 46 15 46 1E 46 ...  returns 0x00 (0003ms, 2012ms total)
T0260 052:659 JLINK_ReadMem (0x08001630, 0x003C Bytes, ...) -- Read from C cache (60 bytes @ 0x08001630) -- Data:  01 21 28 48 FF F7 BF F8 BD E8 F0 81 2D E9 F0 41 ...  returns 0x00 (0000ms, 2012ms total)
T1520 053:415 JLINK_Step() -- Read from C cache (2 bytes @ 0x0800163C) -- Read from C cache (2 bytes @ 0x0800163E) -- Not simulated -- Invalidate MA0 status -- CPU_WriteMem(4 bytes @ 0xE0002008)  returns 0x00 (0016ms, 2028ms total)
T1520 053:431 JLINK_ReadReg(R15)  returns 0x08001640 (0000ms, 2028ms total)
T1520 053:431 JLINK_ReadReg(XPSR)  returns 0x21000000 (0000ms, 2028ms total)
T1520 053:431 JLINK_Step() -- CPU_ReadMem(64 bytes @ 0x08001640) -- Updating C cache (64 bytes @ 0x08001640) -- Read from C cache (2 bytes @ 0x08001640) -- Simulated  returns 0x00 (0003ms, 2031ms total)
T1520 053:434 JLINK_ReadReg(R15)  returns 0x08001642 (0000ms, 2031ms total)
T1520 053:434 JLINK_ReadReg(XPSR)  returns 0x21000000 (0000ms, 2031ms total)
T1520 053:434 JLINK_Step() -- Read from C cache (2 bytes @ 0x08001642) -- Simulated  returns 0x00 (0000ms, 2031ms total)
T1520 053:434 JLINK_ReadReg(R15)  returns 0x08001644 (0001ms, 2032ms total)
T1520 053:435 JLINK_ReadReg(XPSR)  returns 0x21000000 (0000ms, 2032ms total)
T1520 053:435 JLINK_Step() -- Read from C cache (2 bytes @ 0x08001644) -- Simulated  returns 0x00 (0000ms, 2032ms total)
T1520 053:435 JLINK_ReadReg(R15)  returns 0x08001646 (0000ms, 2032ms total)
T1520 053:435 JLINK_ReadReg(XPSR)  returns 0x21000000 (0000ms, 2032ms total)
T1520 053:435 JLINK_Step() -- Read from C cache (2 bytes @ 0x08001646) -- Simulated  returns 0x00 (0001ms, 2033ms total)
T1520 053:436 JLINK_ReadReg(R15)  returns 0x08001648 (0000ms, 2033ms total)
T1520 053:436 JLINK_ReadReg(XPSR)  returns 0x21000000 (0000ms, 2033ms total)
T1520 053:436 JLINK_ReadReg(R0)  returns 0x20000250 (0000ms, 2033ms total)
T1520 053:436 JLINK_ReadReg(R1)  returns 0x000000D4 (0000ms, 2033ms total)
T1520 053:436 JLINK_ReadReg(R2)  returns 0x00000010 (0001ms, 2034ms total)
T1520 053:437 JLINK_ReadReg(R3)  returns 0x00000001 (0000ms, 2034ms total)
T1520 053:437 JLINK_ReadReg(R4)  returns 0x20000250 (0000ms, 2034ms total)
T1520 053:437 JLINK_ReadReg(R5)  returns 0x00000010 (0000ms, 2034ms total)
T1520 053:437 JLINK_ReadReg(R6)  returns 0x00000001 (0000ms, 2034ms total)
T1520 053:437 JLINK_ReadReg(R7)  returns 0x000000D4 (0000ms, 2034ms total)
T1520 053:437 JLINK_ReadReg(R8)  returns 0x00000000 (0001ms, 2035ms total)
T1520 053:438 JLINK_ReadReg(R9)  returns 0x20000160 (0000ms, 2035ms total)
T1520 053:438 JLINK_ReadReg(R10)  returns 0x08001DB8 (0000ms, 2035ms total)
T1520 053:438 JLINK_ReadReg(R11)  returns 0x00000000 (0000ms, 2035ms total)
T1520 053:438 JLINK_ReadReg(R12)  returns 0x00000180 (0000ms, 2035ms total)
T1520 053:438 JLINK_ReadReg(R13)  returns 0x20000238 (0000ms, 2035ms total)
T1520 053:438 JLINK_ReadReg(R14)  returns 0x080019A1 (0000ms, 2035ms total)
T1520 053:439 JLINK_ReadReg(R15)  returns 0x08001648 (0000ms, 2036ms total)
T1520 053:439 JLINK_ReadReg(XPSR)  returns 0x21000000 (0000ms, 2036ms total)
T1520 053:439 JLINK_ReadReg(MSP)  returns 0x20000238 (0000ms, 2036ms total)
T1520 053:439 JLINK_ReadReg(PSP)  returns 0x20000800 (0000ms, 2036ms total)
T1520 053:439 JLINK_ReadReg(CFBP)  returns 0x00000000 (0000ms, 2036ms total)
T0260 053:442 JLINK_ReadMem (0x2000024C, 0x0004 Bytes, ...) -- CPU_ReadMem(64 bytes @ 0x20000240) -- Updating C cache (64 bytes @ 0x20000240) -- Read from C cache (4 bytes @ 0x2000024C) -- Data:  A1 19 00 08  returns 0x00 (0003ms, 2039ms total)
T0260 053:445 JLINK_ReadMem (0x20000238, 0x0004 Bytes, ...) -- CPU_ReadMem(64 bytes @ 0x20000200) -- Updating C cache (64 bytes @ 0x20000200) -- Read from C cache (4 bytes @ 0x20000238) -- Data:  00 00 00 00  returns 0x00 (0002ms, 2041ms total)
T0260 053:448 JLINK_ReadMem (0x2000023C, 0x0004 Bytes, ...) -- Read from C cache (4 bytes @ 0x2000023C) -- Data:  2C 00 00 20  returns 0x00 (0000ms, 2041ms total)
T0260 053:448 JLINK_ReadMem (0x20000240, 0x0004 Bytes, ...) -- Read from C cache (4 bytes @ 0x20000240) -- Data:  00 00 00 00  returns 0x00 (0000ms, 2041ms total)
T0260 053:448 JLINK_ReadMem (0x20000244, 0x0004 Bytes, ...) -- Read from C cache (4 bytes @ 0x20000244) -- Data:  00 00 00 00  returns 0x00 (0000ms, 2041ms total)
T0260 053:448 JLINK_ReadMem (0x20000248, 0x0004 Bytes, ...) -- Read from C cache (4 bytes @ 0x20000248) -- Data:  00 00 00 00  returns 0x00 (0001ms, 2042ms total)
T0260 053:449 JLINK_ReadMem (0x20000254, 0x0004 Bytes, ...) -- Read from C cache (4 bytes @ 0x20000254) -- Data:  33 1A 00 08  returns 0x00 (0000ms, 2042ms total)
T0260 053:449 JLINK_ReadMem (0x2000025C, 0x0004 Bytes, ...) -- Read from C cache (4 bytes @ 0x2000025C) -- Data:  55 15 00 08  returns 0x00 (0000ms, 2042ms total)
T0260 053:449 JLINK_ReadMem (0x20000258, 0x0004 Bytes, ...) -- Read from C cache (4 bytes @ 0x20000258) -- Data:  00 00 00 00  returns 0x00 (0000ms, 2042ms total)
T0260 053:449 JLINK_ReadMem (0x20000264, 0x0004 Bytes, ...) -- Read from C cache (4 bytes @ 0x20000264) -- Data:  CB 11 00 08  returns 0x00 (0001ms, 2043ms total)
T0260 053:450 JLINK_ReadMem (0x20000260, 0x0004 Bytes, ...) -- Read from C cache (4 bytes @ 0x20000260) -- Data:  00 00 00 00  returns 0x00 (0000ms, 2043ms total)
T0260 053:450 JLINK_ReadMem (0x20000250, 0x0020 Bytes, ...) -- Read from C cache (32 bytes @ 0x20000250) -- Data:  C1 00 00 00 33 1A 00 08 00 00 00 00 55 15 00 08 ...  returns 0x00 (0000ms, 2043ms total)
T0260 053:450 JLINK_ReadMemU32(0xE0001004, 0x0001 Items, ...) -- CPU_ReadMem(4 bytes @ 0xE0001004) -- Data:  00 00 00 00  returns 0x01 (0002ms, 2045ms total)
T0260 053:452 JLINK_ReadMem (0x40005400, 0x0002 Bytes, ...) -- CPU_ReadMem(2 bytes @ 0x40005400) -- Data:  01 04  returns 0x00 (0002ms, 2047ms total)
T0260 053:454 JLINK_ReadMem (0x40005402, 0x0002 Bytes, ...) -- CPU_ReadMem(2 bytes @ 0x40005402) -- Data:  00 00  returns 0x00 (0001ms, 2048ms total)
T0260 053:455 JLINK_ReadMem (0x40005404, 0x0002 Bytes, ...) -- CPU_ReadMem(2 bytes @ 0x40005404) -- Data:  24 00  returns 0x00 (0002ms, 2050ms total)
T0260 053:457 JLINK_ReadMem (0x40005406, 0x0002 Bytes, ...) -- CPU_ReadMem(2 bytes @ 0x40005406) -- Data:  00 00  returns 0x00 (0001ms, 2051ms total)
T0260 053:458 JLINK_ReadMem (0x40005408, 0x0002 Bytes, ...) -- CPU_ReadMem(2 bytes @ 0x40005408) -- Data:  0A 40  returns 0x00 (0002ms, 2053ms total)
T0260 053:460 JLINK_ReadMem (0x4000540A, 0x0002 Bytes, ...) -- CPU_ReadMem(2 bytes @ 0x4000540A) -- Data:  00 00  returns 0x00 (0001ms, 2054ms total)
T0260 053:461 JLINK_ReadMem (0x4000540C, 0x0002 Bytes, ...) -- CPU_ReadMem(2 bytes @ 0x4000540C) -- Data:  00 00  returns 0x00 (0001ms, 2055ms total)
T0260 053:462 JLINK_ReadMem (0x4000540E, 0x0002 Bytes, ...) -- CPU_ReadMem(2 bytes @ 0x4000540E) -- Data:  00 00  returns 0x00 (0002ms, 2057ms total)
T0260 053:464 JLINK_ReadMem (0x40005410, 0x0002 Bytes, ...) -- CPU_ReadMem(2 bytes @ 0x40005410) -- Data:  00 00  returns 0x00 (0002ms, 2059ms total)
T0260 053:466 JLINK_ReadMem (0x40005412, 0x0002 Bytes, ...) -- CPU_ReadMem(2 bytes @ 0x40005412) -- Data:  00 00  returns 0x00 (0001ms, 2060ms total)
T0260 053:467 JLINK_ReadMem (0x40005414, 0x0002 Bytes, ...) -- CPU_ReadMem(2 bytes @ 0x40005414) -- Data:  00 00  returns 0x00 (0001ms, 2061ms total)
T0260 053:468 JLINK_ReadMem (0x40005416, 0x0002 Bytes, ...) -- CPU_ReadMem(2 bytes @ 0x40005416) -- Data:  00 00  returns 0x00 (0002ms, 2063ms total)
T0260 053:470 JLINK_ReadMem (0x40005418, 0x0002 Bytes, ...) -- CPU_ReadMem(2 bytes @ 0x40005418) -- Data:  00 00  returns 0x00 (0001ms, 2064ms total)
T0260 053:471 JLINK_ReadMem (0x4000541A, 0x0002 Bytes, ...) -- CPU_ReadMem(2 bytes @ 0x4000541A) -- Data:  00 00  returns 0x00 (0001ms, 2065ms total)
T0260 053:472 JLINK_ReadMem (0x4000541C, 0x0002 Bytes, ...) -- CPU_ReadMem(2 bytes @ 0x4000541C) -- Data:  C2 01  returns 0x00 (0002ms, 2067ms total)
T0260 053:474 JLINK_ReadMem (0x4000541E, 0x0002 Bytes, ...) -- CPU_ReadMem(2 bytes @ 0x4000541E) -- Data:  00 00  returns 0x00 (0001ms, 2068ms total)
T0260 053:475 JLINK_ReadMem (0x40005420, 0x0002 Bytes, ...) -- CPU_ReadMem(2 bytes @ 0x40005420) -- Data:  25 00  returns 0x00 (0001ms, 2069ms total)
T0260 053:476 JLINK_ReadMem (0x40005422, 0x0002 Bytes, ...) -- CPU_ReadMem(2 bytes @ 0x40005422) -- Data:  00 00  returns 0x00 (0002ms, 2071ms total)
T1520 055:224 JLINK_ReadMem (0x08001648, 0x003C Bytes, ...) -- CPU_ReadMem(64 bytes @ 0x08001680) -- Updating C cache (64 bytes @ 0x08001680) -- Read from C cache (60 bytes @ 0x08001648) -- Data:  00 BF 4F F4 00 31 21 48 FF F7 9C F9 00 28 F8 D1 ...  returns 0x00 (0004ms, 2075ms total)
T1520 055:228 JLINK_Step() -- Read from C cache (2 bytes @ 0x08001648) -- Simulated  returns 0x00 (0001ms, 2076ms total)
T1520 055:229 JLINK_ReadReg(R15)  returns 0x0800164A (0001ms, 2077ms total)
T1520 055:230 JLINK_ReadReg(XPSR)  returns 0x21000000 (0000ms, 2077ms total)
T1520 055:230 JLINK_ReadReg(R0)  returns 0x20000250 (0000ms, 2077ms total)
T1520 055:230 JLINK_ReadReg(R1)  returns 0x000000D4 (0000ms, 2077ms total)
T1520 055:230 JLINK_ReadReg(R2)  returns 0x00000010 (0000ms, 2077ms total)
T1520 055:230 JLINK_ReadReg(R3)  returns 0x00000001 (0001ms, 2078ms total)
T1520 055:231 JLINK_ReadReg(R4)  returns 0x20000250 (0000ms, 2078ms total)
T1520 055:231 JLINK_ReadReg(R5)  returns 0x00000010 (0000ms, 2078ms total)
T1520 055:231 JLINK_ReadReg(R6)  returns 0x00000001 (0000ms, 2078ms total)
T1520 055:231 JLINK_ReadReg(R7)  returns 0x000000D4 (0000ms, 2078ms total)
T1520 055:231 JLINK_ReadReg(R8)  returns 0x00000000 (0000ms, 2078ms total)
T1520 055:231 JLINK_ReadReg(R9)  returns 0x20000160 (0000ms, 2078ms total)
T1520 055:231 JLINK_ReadReg(R10)  returns 0x08001DB8 (0001ms, 2079ms total)
T1520 055:232 JLINK_ReadReg(R11)  returns 0x00000000 (0000ms, 2079ms total)
T1520 055:232 JLINK_ReadReg(R12)  returns 0x00000180 (0000ms, 2079ms total)
T1520 055:232 JLINK_ReadReg(R13)  returns 0x20000238 (0000ms, 2079ms total)
T1520 055:232 JLINK_ReadReg(R14)  returns 0x080019A1 (0000ms, 2079ms total)
T1520 055:232 JLINK_ReadReg(R15)  returns 0x0800164A (0000ms, 2079ms total)
T1520 055:232 JLINK_ReadReg(XPSR)  returns 0x21000000 (0001ms, 2080ms total)
T1520 055:233 JLINK_ReadReg(MSP)  returns 0x20000238 (0000ms, 2080ms total)
T1520 055:233 JLINK_ReadReg(PSP)  returns 0x20000800 (0000ms, 2080ms total)
T1520 055:233 JLINK_ReadReg(CFBP)  returns 0x00000000 (0000ms, 2080ms total)
T0260 055:242 JLINK_ReadMem (0x2000024C, 0x0004 Bytes, ...) -- Read from C cache (4 bytes @ 0x2000024C) -- Data:  A1 19 00 08  returns 0x00 (0001ms, 2081ms total)
T0260 055:243 JLINK_ReadMem (0x20000238, 0x0004 Bytes, ...) -- Read from C cache (4 bytes @ 0x20000238) -- Data:  00 00 00 00  returns 0x00 (0000ms, 2081ms total)
T0260 055:243 JLINK_ReadMem (0x2000023C, 0x0004 Bytes, ...) -- Read from C cache (4 bytes @ 0x2000023C) -- Data:  2C 00 00 20  returns 0x00 (0000ms, 2081ms total)
T0260 055:243 JLINK_ReadMem (0x20000240, 0x0004 Bytes, ...) -- Read from C cache (4 bytes @ 0x20000240) -- Data:  00 00 00 00  returns 0x00 (0000ms, 2081ms total)
T0260 055:243 JLINK_ReadMem (0x20000244, 0x0004 Bytes, ...) -- Read from C cache (4 bytes @ 0x20000244) -- Data:  00 00 00 00  returns 0x00 (0001ms, 2082ms total)
T0260 055:244 JLINK_ReadMem (0x20000248, 0x0004 Bytes, ...) -- Read from C cache (4 bytes @ 0x20000248) -- Data:  00 00 00 00  returns 0x00 (0000ms, 2082ms total)
T0260 055:244 JLINK_ReadMem (0x20000254, 0x0004 Bytes, ...) -- Read from C cache (4 bytes @ 0x20000254) -- Data:  33 1A 00 08  returns 0x00 (0000ms, 2082ms total)
T0260 055:244 JLINK_ReadMem (0x2000025C, 0x0004 Bytes, ...) -- Read from C cache (4 bytes @ 0x2000025C) -- Data:  55 15 00 08  returns 0x00 (0001ms, 2083ms total)
T0260 055:245 JLINK_ReadMem (0x20000258, 0x0004 Bytes, ...) -- Read from C cache (4 bytes @ 0x20000258) -- Data:  00 00 00 00  returns 0x00 (0000ms, 2083ms total)
T0260 055:245 JLINK_ReadMem (0x20000264, 0x0004 Bytes, ...) -- Read from C cache (4 bytes @ 0x20000264) -- Data:  CB 11 00 08  returns 0x00 (0000ms, 2083ms total)
T0260 055:245 JLINK_ReadMem (0x20000260, 0x0004 Bytes, ...) -- Read from C cache (4 bytes @ 0x20000260) -- Data:  00 00 00 00  returns 0x00 (0000ms, 2083ms total)
T0260 055:245 JLINK_ReadMem (0x20000250, 0x0020 Bytes, ...) -- Read from C cache (32 bytes @ 0x20000250) -- Data:  C1 00 00 00 33 1A 00 08 00 00 00 00 55 15 00 08 ...  returns 0x00 (0001ms, 2084ms total)
T0260 055:246 JLINK_ReadMemU32(0xE0001004, 0x0001 Items, ...) -- Data:  00 00 00 00  returns 0x01 (0000ms, 2084ms total)
T0260 055:246 JLINK_ReadMem (0x40005400, 0x0002 Bytes, ...) -- CPU_ReadMem(2 bytes @ 0x40005400) -- Data:  01 04  returns 0x00 (0002ms, 2086ms total)
T0260 055:248 JLINK_ReadMem (0x40005402, 0x0002 Bytes, ...) -- CPU_ReadMem(2 bytes @ 0x40005402) -- Data:  00 00  returns 0x00 (0002ms, 2088ms total)
T0260 055:250 JLINK_ReadMem (0x40005404, 0x0002 Bytes, ...) -- CPU_ReadMem(2 bytes @ 0x40005404) -- Data:  24 00  returns 0x00 (0002ms, 2090ms total)
T0260 055:252 JLINK_ReadMem (0x40005406, 0x0002 Bytes, ...) -- CPU_ReadMem(2 bytes @ 0x40005406) -- Data:  00 00  returns 0x00 (0001ms, 2091ms total)
T0260 055:253 JLINK_ReadMem (0x40005408, 0x0002 Bytes, ...) -- CPU_ReadMem(2 bytes @ 0x40005408) -- Data:  0A 40  returns 0x00 (0001ms, 2092ms total)
T0260 055:254 JLINK_ReadMem (0x4000540A, 0x0002 Bytes, ...) -- CPU_ReadMem(2 bytes @ 0x4000540A) -- Data:  00 00  returns 0x00 (0001ms, 2093ms total)
T0260 055:255 JLINK_ReadMem (0x4000540C, 0x0002 Bytes, ...) -- CPU_ReadMem(2 bytes @ 0x4000540C) -- Data:  00 00  returns 0x00 (0002ms, 2095ms total)
T0260 055:257 JLINK_ReadMem (0x4000540E, 0x0002 Bytes, ...) -- CPU_ReadMem(2 bytes @ 0x4000540E) -- Data:  00 00  returns 0x00 (0001ms, 2096ms total)
T0260 055:258 JLINK_ReadMem (0x40005410, 0x0002 Bytes, ...) -- CPU_ReadMem(2 bytes @ 0x40005410) -- Data:  00 00  returns 0x00 (0001ms, 2097ms total)
T0260 055:259 JLINK_ReadMem (0x40005412, 0x0002 Bytes, ...) -- CPU_ReadMem(2 bytes @ 0x40005412) -- Data:  00 00  returns 0x00 (0002ms, 2099ms total)
T0260 055:261 JLINK_ReadMem (0x40005414, 0x0002 Bytes, ...) -- CPU_ReadMem(2 bytes @ 0x40005414) -- Data:  00 00  returns 0x00 (0001ms, 2100ms total)
T0260 055:262 JLINK_ReadMem (0x40005416, 0x0002 Bytes, ...) -- CPU_ReadMem(2 bytes @ 0x40005416) -- Data:  00 00  returns 0x00 (0001ms, 2101ms total)
T0260 055:263 JLINK_ReadMem (0x40005418, 0x0002 Bytes, ...) -- CPU_ReadMem(2 bytes @ 0x40005418) -- Data:  00 00  returns 0x00 (0002ms, 2103ms total)
T0260 055:265 JLINK_ReadMem (0x4000541A, 0x0002 Bytes, ...) -- CPU_ReadMem(2 bytes @ 0x4000541A) -- Data:  00 00  returns 0x00 (0001ms, 2104ms total)
T0260 055:266 JLINK_ReadMem (0x4000541C, 0x0002 Bytes, ...) -- CPU_ReadMem(2 bytes @ 0x4000541C) -- Data:  C2 01  returns 0x00 (0002ms, 2106ms total)
T0260 055:268 JLINK_ReadMem (0x4000541E, 0x0002 Bytes, ...) -- CPU_ReadMem(2 bytes @ 0x4000541E) -- Data:  00 00  returns 0x00 (0001ms, 2107ms total)
T0260 055:269 JLINK_ReadMem (0x40005420, 0x0002 Bytes, ...) -- CPU_ReadMem(2 bytes @ 0x40005420) -- Data:  25 00  returns 0x00 (0001ms, 2108ms total)
T0260 055:270 JLINK_ReadMem (0x40005422, 0x0002 Bytes, ...) -- CPU_ReadMem(2 bytes @ 0x40005422) -- Data:  00 00  returns 0x00 (0002ms, 2110ms total)
T1520 056:740 JLINK_ReadMem (0x0800164A, 0x0002 Bytes, ...) -- Read from C cache (2 bytes @ 0x0800164A) -- Data:  4F F4  returns 0x00 (0001ms, 2111ms total)
T1520 056:741 JLINK_ReadMem (0x0800164C, 0x003C Bytes, ...) -- Read from C cache (60 bytes @ 0x0800164C) -- Data:  00 31 21 48 FF F7 9C F9 00 28 F8 D1 01 21 1E 48 ...  returns 0x00 (0000ms, 2111ms total)
T1520 056:741 JLINK_Step() -- Read from C cache (2 bytes @ 0x0800164A) -- Read from C cache (2 bytes @ 0x0800164C) -- Simulated  returns 0x00 (0002ms, 2113ms total)
T1520 056:743 JLINK_ReadReg(R15)  returns 0x0800164E (0000ms, 2113ms total)
T1520 056:743 JLINK_ReadReg(XPSR)  returns 0x21000000 (0000ms, 2113ms total)
T1520 056:743 JLINK_Step() -- Read from C cache (2 bytes @ 0x0800164E) -- CPU_ReadMem(64 bytes @ 0x080016C0) -- Updating C cache (64 bytes @ 0x080016C0) -- Read from C cache (4 bytes @ 0x080016D4) -- Simulated  returns 0x00 (0003ms, 2116ms total)
T1520 056:746 JLINK_ReadReg(R15)  returns 0x08001650 (0000ms, 2116ms total)
T1520 056:746 JLINK_ReadReg(XPSR)  returns 0x21000000 (0000ms, 2116ms total)
T1520 056:746 JLINK_SetBPEx(Addr = 0x08001654, Type = 0xFFFFFFF2)  returns 0x00000002 (0000ms, 2116ms total)
T1520 056:746 JLINK_SetBPEx(Addr = 0x08001994, Type = 0xFFFFFFF2)  returns 0x00000003 (0000ms, 2116ms total)
T1520 056:746 JLINK_Go() -- CPU_WriteMem(4 bytes @ 0xE0002008) -- CPU_WriteMem(4 bytes @ 0xE000200C) (0006ms, 2122ms total)
T1520 056:852 JLINK_IsHalted()  returns TRUE (0006ms, 2128ms total)
T1520 056:858 JLINK_Halt()  returns 0x00 (0000ms, 2122ms total)
T1520 056:858 JLINK_IsHalted()  returns TRUE (0000ms, 2122ms total)
T1520 056:858 JLINK_IsHalted()  returns TRUE (0001ms, 2123ms total)
T1520 056:859 JLINK_IsHalted()  returns TRUE (0000ms, 2122ms total)
T1520 056:859 JLINK_ReadReg(R15)  returns 0x08001654 (0000ms, 2122ms total)
T1520 056:859 JLINK_ReadReg(XPSR)  returns 0x41000000 (0000ms, 2122ms total)
T1520 056:859 JLINK_ClrBPEx(BPHandle = 0x00000002)  returns 0x00 (0000ms, 2122ms total)
T1520 056:859 JLINK_ClrBPEx(BPHandle = 0x00000003)  returns 0x00 (0000ms, 2122ms total)
T1520 056:859 JLINK_ReadMemU32(0xE000ED30, 0x0001 Items, ...) -- CPU_ReadMem(4 bytes @ 0xE000ED30) -- Data:  0B 00 00 00  returns 0x01 (0002ms, 2124ms total)
T1520 056:861 JLINK_ReadMemU32(0xE0001028, 0x0001 Items, ...) -- CPU_ReadMem(4 bytes @ 0xE0001028) -- Data:  00 00 00 00  returns 0x01 (0002ms, 2126ms total)
T1520 056:863 JLINK_ReadMemU32(0xE0001038, 0x0001 Items, ...) -- CPU_ReadMem(4 bytes @ 0xE0001038) -- Data:  00 00 00 00  returns 0x01 (0002ms, 2128ms total)
T1520 056:865 JLINK_ReadMemU32(0xE0001048, 0x0001 Items, ...) -- CPU_ReadMem(4 bytes @ 0xE0001048) -- Data:  00 00 00 00  returns 0x01 (0001ms, 2129ms total)
T1520 056:866 JLINK_ReadMemU32(0xE0001058, 0x0001 Items, ...) -- CPU_ReadMem(4 bytes @ 0xE0001058) -- Data:  00 00 00 00  returns 0x01 (0002ms, 2131ms total)
T1520 056:868 JLINK_Step() -- CPU_ReadMem(64 bytes @ 0x08001640) -- Updating C cache (64 bytes @ 0x08001640) -- Read from C cache (2 bytes @ 0x08001654) -- Simulated  returns 0x00 (0003ms, 2134ms total)
T1520 056:871 JLINK_ReadReg(R15)  returns 0x08001656 (0000ms, 2134ms total)
T1520 056:871 JLINK_ReadReg(XPSR)  returns 0x61000000 (0000ms, 2134ms total)
T1520 056:871 JLINK_Step() -- Read from C cache (2 bytes @ 0x08001656) -- Simulated  returns 0x00 (0000ms, 2134ms total)
T1520 056:871 JLINK_ReadReg(R15)  returns 0x08001658 (0000ms, 2134ms total)
T1520 056:871 JLINK_ReadReg(XPSR)  returns 0x61000000 (0001ms, 2135ms total)
T1520 056:872 JLINK_ReadReg(R0)  returns 0x00000000 (0000ms, 2135ms total)
T1520 056:872 JLINK_ReadReg(R1)  returns 0x00000002 (0000ms, 2135ms total)
T1520 056:872 JLINK_ReadReg(R2)  returns 0x40005418 (0001ms, 2136ms total)
T1520 056:873 JLINK_ReadReg(R3)  returns 0x00000000 (0000ms, 2136ms total)
T1520 056:873 JLINK_ReadReg(R4)  returns 0x20000250 (0000ms, 2136ms total)
T1520 056:873 JLINK_ReadReg(R5)  returns 0x00000010 (0000ms, 2136ms total)
T1520 056:873 JLINK_ReadReg(R6)  returns 0x00000001 (0000ms, 2136ms total)
T1520 056:873 JLINK_ReadReg(R7)  returns 0x000000D4 (0000ms, 2136ms total)
T1520 056:873 JLINK_ReadReg(R8)  returns 0x00000000 (0001ms, 2137ms total)
T1520 056:874 JLINK_ReadReg(R9)  returns 0x20000160 (0000ms, 2137ms total)
T1520 056:874 JLINK_ReadReg(R10)  returns 0x08001DB8 (0000ms, 2137ms total)
T1520 056:874 JLINK_ReadReg(R11)  returns 0x00000000 (0000ms, 2137ms total)
T1520 056:874 JLINK_ReadReg(R12)  returns 0x00000180 (0000ms, 2137ms total)
T1520 056:874 JLINK_ReadReg(R13)  returns 0x20000238 (0000ms, 2137ms total)
T1520 056:874 JLINK_ReadReg(R14)  returns 0x08001655 (0000ms, 2137ms total)
T1520 056:874 JLINK_ReadReg(R15)  returns 0x08001658 (0001ms, 2138ms total)
T1520 056:875 JLINK_ReadReg(XPSR)  returns 0x61000000 (0000ms, 2138ms total)
T1520 056:875 JLINK_ReadReg(MSP)  returns 0x20000238 (0000ms, 2138ms total)
T1520 056:875 JLINK_ReadReg(PSP)  returns 0x20000800 (0000ms, 2138ms total)
T1520 056:875 JLINK_ReadReg(CFBP)  returns 0x00000000 (0000ms, 2138ms total)
T0260 056:876 JLINK_ReadMem (0x2000024C, 0x0004 Bytes, ...) -- CPU_ReadMem(64 bytes @ 0x20000240) -- Updating C cache (64 bytes @ 0x20000240) -- Read from C cache (4 bytes @ 0x2000024C) -- Data:  A1 19 00 08  returns 0x00 (0002ms, 2140ms total)
T0260 056:878 JLINK_ReadMem (0x20000238, 0x0004 Bytes, ...) -- CPU_ReadMem(64 bytes @ 0x20000200) -- Updating C cache (64 bytes @ 0x20000200) -- Read from C cache (4 bytes @ 0x20000238) -- Data:  00 00 00 00  returns 0x00 (0003ms, 2143ms total)
T0260 056:881 JLINK_ReadMem (0x2000023C, 0x0004 Bytes, ...) -- Read from C cache (4 bytes @ 0x2000023C) -- Data:  2C 00 00 20  returns 0x00 (0000ms, 2143ms total)
T0260 056:881 JLINK_ReadMem (0x20000240, 0x0004 Bytes, ...) -- Read from C cache (4 bytes @ 0x20000240) -- Data:  00 00 00 00  returns 0x00 (0000ms, 2143ms total)
T0260 056:881 JLINK_ReadMem (0x20000244, 0x0004 Bytes, ...) -- Read from C cache (4 bytes @ 0x20000244) -- Data:  00 00 00 00  returns 0x00 (0000ms, 2143ms total)
T0260 056:881 JLINK_ReadMem (0x20000248, 0x0004 Bytes, ...) -- Read from C cache (4 bytes @ 0x20000248) -- Data:  00 00 00 00  returns 0x00 (0001ms, 2144ms total)
T0260 056:882 JLINK_ReadMem (0x20000254, 0x0004 Bytes, ...) -- Read from C cache (4 bytes @ 0x20000254) -- Data:  33 1A 00 08  returns 0x00 (0000ms, 2144ms total)
T0260 056:882 JLINK_ReadMem (0x2000025C, 0x0004 Bytes, ...) -- Read from C cache (4 bytes @ 0x2000025C) -- Data:  55 15 00 08  returns 0x00 (0000ms, 2144ms total)
T0260 056:882 JLINK_ReadMem (0x20000258, 0x0004 Bytes, ...) -- Read from C cache (4 bytes @ 0x20000258) -- Data:  00 00 00 00  returns 0x00 (0000ms, 2144ms total)
T0260 056:882 JLINK_ReadMem (0x20000264, 0x0004 Bytes, ...) -- Read from C cache (4 bytes @ 0x20000264) -- Data:  CB 11 00 08  returns 0x00 (0001ms, 2145ms total)
T0260 056:883 JLINK_ReadMem (0x20000260, 0x0004 Bytes, ...) -- Read from C cache (4 bytes @ 0x20000260) -- Data:  00 00 00 00  returns 0x00 (0000ms, 2145ms total)
T0260 056:883 JLINK_ReadMem (0x20000250, 0x0020 Bytes, ...) -- Read from C cache (32 bytes @ 0x20000250) -- Data:  C1 00 00 00 33 1A 00 08 00 00 00 00 55 15 00 08 ...  returns 0x00 (0000ms, 2145ms total)
T0260 056:883 JLINK_ReadMemU32(0xE0001004, 0x0001 Items, ...) -- CPU_ReadMem(4 bytes @ 0xE0001004) -- Data:  00 00 00 00  returns 0x01 (0002ms, 2147ms total)
T0260 056:885 JLINK_ReadMem (0x40005400, 0x0002 Bytes, ...) -- CPU_ReadMem(2 bytes @ 0x40005400) -- Data:  01 04  returns 0x00 (0002ms, 2149ms total)
T0260 056:887 JLINK_ReadMem (0x40005402, 0x0002 Bytes, ...) -- CPU_ReadMem(2 bytes @ 0x40005402) -- Data:  00 00  returns 0x00 (0002ms, 2151ms total)
T0260 056:889 JLINK_ReadMem (0x40005404, 0x0002 Bytes, ...) -- CPU_ReadMem(2 bytes @ 0x40005404) -- Data:  24 00  returns 0x00 (0001ms, 2152ms total)
T0260 056:890 JLINK_ReadMem (0x40005406, 0x0002 Bytes, ...) -- CPU_ReadMem(2 bytes @ 0x40005406) -- Data:  00 00  returns 0x00 (0002ms, 2154ms total)
T0260 056:892 JLINK_ReadMem (0x40005408, 0x0002 Bytes, ...) -- CPU_ReadMem(2 bytes @ 0x40005408) -- Data:  0A 40  returns 0x00 (0002ms, 2156ms total)
T0260 056:894 JLINK_ReadMem (0x4000540A, 0x0002 Bytes, ...) -- CPU_ReadMem(2 bytes @ 0x4000540A) -- Data:  00 00  returns 0x00 (0002ms, 2158ms total)
